2.682745560000000,SPI,MOSI: 0x21;  MISO: 0x0E-WRITE_REGISTER-EN_AA
2.682755320000000,SPI,MOSI: 0x00;  MISO: 0x00
2.682774200000000,SPI,MOSI: 0x22;  MISO: 0x0E-WRITE_REGISTER-EN_RXADDR
2.682783960000000,SPI,MOSI: 0x01;  MISO: 0x00
2.682802800000000,SPI,MOSI: 0x23;  MISO: 0x0E-WRITE_REGISTER-SETUP_AW
2.682812560000000,SPI,MOSI: 0x02;  MISO: 0x00
2.682831440000000,SPI,MOSI: 0x24;  MISO: 0x0E-WRITE_REGISTER-SETUP_RETR
2.682841200000000,SPI,MOSI: 0x00;  MISO: 0x00
2.682860080000000,SPI,MOSI: 0x26;  MISO: 0x0E-WRITE_REGISTER-RF_SETUP
2.682869840000000,SPI,MOSI: 0x24;  MISO: 0x00
2.682888720000000,SPI,MOSI: 0x20;  MISO: 0x0E-WRITE_REGISTER-CONFIG
2.682898440000000,SPI,MOSI: 0x5E;  MISO: 0x00
2.682917360000000,SPI,MOSI: 0x31;  MISO: 0x0E-WRITE_REGISTER-RX_PW_P0
2.682927080000000,SPI,MOSI: 0x04;  MISO: 0x00
2.682946480000000,SPI,MOSI: 0x27;  MISO: 0x0E-WRITE_REGISTER-STATUS
2.682956240000000,SPI,MOSI: 0xF0;  MISO: 0x00
2.682975120000000,SPI,MOSI: 0x32;  MISO: 0x0E-WRITE_REGISTER-RX_PW_P1
2.682984880000000,SPI,MOSI: 0x00;  MISO: 0x00
2.683003760000000,SPI,MOSI: 0x33;  MISO: 0x0E-WRITE_REGISTER-RX_PW_P2
2.683013520000000,SPI,MOSI: 0x00;  MISO: 0x00
2.683032400000000,SPI,MOSI: 0x34;  MISO: 0x0E-WRITE_REGISTER-RX_PW_P3
2.683042160000000,SPI,MOSI: 0x00;  MISO: 0x00
2.683061080000000,SPI,MOSI: 0x35;  MISO: 0x0E-WRITE_REGISTER-RX_PW_P4
2.683070840000000,SPI,MOSI: 0x00;  MISO: 0x00
2.683089760000000,SPI,MOSI: 0x36;  MISO: 0x0E-WRITE_REGISTER-RX_PW_P5
2.683099520000000,SPI,MOSI: 0x00;  MISO: 0x00
2.683118400000000,SPI,MOSI: 0x25;  MISO: 0x0E-WRITE_REGISTER-RF_CH
2.683128160000000,SPI,MOSI: 0x58;  MISO: 0x00
2.683147080000000,SPI,MOSI: 0x20;  MISO: 0x0E-WRITE_REGISTER-CONFIG
2.683156840000000,SPI,MOSI: 0x3F;  MISO: 0x00
2.683175720000000,SPI,MOSI: 0x31;  MISO: 0x0E-WRITE_REGISTER-RX_PW_P0
2.683185480000000,SPI,MOSI: 0x04;  MISO: 0x00
2.683200000000000,SPI,MOSI: 0x2A;  MISO: 0x0E-WRITE_REGISTER-RX_ADDR_P0
2.683209880000000,SPI,MOSI: 0xC3;  MISO: 0x00
2.683219800000000,SPI,MOSI: 0xC3;  MISO: 0x00
2.683229680000000,SPI,MOSI: 0xAA;  MISO: 0x00
2.683239560000000,SPI,MOSI: 0x55;  MISO: 0x00
2.683253320000000,SPI,MOSI: 0x0A;  MISO: 0x0E-READ_REGISTER-RX_ADDR_P0
2.683263200000000,SPI,MOSI: 0xFF;  MISO: 0xC3
2.683273480000000,SPI,MOSI: 0xFF;  MISO: 0xC3
2.683283760000000,SPI,MOSI: 0xFF;  MISO: 0xAA
2.683294040000000,SPI,MOSI: 0xFF;  MISO: 0x55
2.683310320000000,SPI,MOSI: 0xE2;  MISO: 0x0E-FLUSH_RX-
2.683328440000000,SPI,MOSI: 0x27;  MISO: 0x0E-WRITE_REGISTER-STATUS
2.683338200000000,SPI,MOSI: 0xF0;  MISO: 0x00
2.701437600000000,SPI,MOSI: 0x30;  MISO: 0x0E-WRITE_REGISTER-TX_ADDR
2.701447600000000,SPI,MOSI: 0x22;  MISO: 0x00
2.701457640000000,SPI,MOSI: 0x5A;  MISO: 0x00
2.701467640000000,SPI,MOSI: 0x83;  MISO: 0x00
2.701477640000000,SPI,MOSI: 0x47;  MISO: 0x00
2.722970360000000,SPI,MOSI: 0x21;  MISO: 0x0E-WRITE_REGISTER-EN_AA
2.722980120000000,SPI,MOSI: 0x00;  MISO: 0x00
2.722999040000000,SPI,MOSI: 0x22;  MISO: 0x0E-WRITE_REGISTER-EN_RXADDR
2.723008800000000,SPI,MOSI: 0x01;  MISO: 0x00
2.723027680000000,SPI,MOSI: 0x23;  MISO: 0x0E-WRITE_REGISTER-SETUP_AW
2.723037440000000,SPI,MOSI: 0x02;  MISO: 0x00
2.723056320000000,SPI,MOSI: 0x24;  MISO: 0x0E-WRITE_REGISTER-SETUP_RETR
2.723066080000000,SPI,MOSI: 0x00;  MISO: 0x00
2.723084960000000,SPI,MOSI: 0x26;  MISO: 0x0E-WRITE_REGISTER-RF_SETUP
2.723094760000000,SPI,MOSI: 0x24;  MISO: 0x00
2.723113640000000,SPI,MOSI: 0x20;  MISO: 0x0E-WRITE_REGISTER-CONFIG
2.723123400000000,SPI,MOSI: 0x5E;  MISO: 0x00
2.723142320000000,SPI,MOSI: 0x31;  MISO: 0x0E-WRITE_REGISTER-RX_PW_P0
2.723152080000000,SPI,MOSI: 0x04;  MISO: 0x00
2.723167320000000,SPI,MOSI: 0x25;  MISO: 0x0E-WRITE_REGISTER-RF_CH
2.723177320000000,SPI,MOSI: 0x25;  MISO: 0x00
2.723191840000000,SPI,MOSI: 0xE1;  MISO: 0x0E-FLUSH_TX-
2.723210000000000,SPI,MOSI: 0x27;  MISO: 0x0E-WRITE_REGISTER-STATUS
2.723219760000000,SPI,MOSI: 0xF0;  MISO: 0x00
2.723234760000000,SPI,MOSI: 0xA0;  MISO: 0x0E-WRITE_TX_PAYLOAD-
2.723244760000000,SPI,MOSI: 0xF9;  MISO: 0x00
2.723254800000000,SPI,MOSI: 0xFD;  MISO: 0x00
2.723264800000000,SPI,MOSI: 0x90;  MISO: 0x00
2.723274800000000,SPI,MOSI: 0xFF;  MISO: 0x00
2.723284840000000,SPI,MOSI: 0x75;  MISO: 0x00
2.724903040000000,SPI,MOSI: 0xE1;  MISO: 0x2E-FLUSH_TX-
2.724921200000000,SPI,MOSI: 0x27;  MISO: 0x2E-WRITE_REGISTER-STATUS
2.724930960000000,SPI,MOSI: 0xF0;  MISO: 0x00
2.724946000000000,SPI,MOSI: 0xA0;  MISO: 0x0E-WRITE_TX_PAYLOAD-
2.724956000000000,SPI,MOSI: 0xF9;  MISO: 0x00
2.724966040000000,SPI,MOSI: 0xFD;  MISO: 0x00
2.724976040000000,SPI,MOSI: 0x90;  MISO: 0x00
2.724986080000000,SPI,MOSI: 0xFF;  MISO: 0x00
2.724996080000000,SPI,MOSI: 0x75;  MISO: 0x00
2.741170640000000,SPI,MOSI: 0x21;  MISO: 0x2E-WRITE_REGISTER-EN_AA
2.741180400000000,SPI,MOSI: 0x00;  MISO: 0x00
2.741199280000000,SPI,MOSI: 0x22;  MISO: 0x2E-WRITE_REGISTER-EN_RXADDR
2.741209080000000,SPI,MOSI: 0x01;  MISO: 0x00
2.741227960000000,SPI,MOSI: 0x23;  MISO: 0x2E-WRITE_REGISTER-SETUP_AW
2.741237720000000,SPI,MOSI: 0x02;  MISO: 0x00
2.741256640000000,SPI,MOSI: 0x24;  MISO: 0x2E-WRITE_REGISTER-SETUP_RETR
2.741266400000000,SPI,MOSI: 0x00;  MISO: 0x00
2.741285320000000,SPI,MOSI: 0x26;  MISO: 0x2E-WRITE_REGISTER-RF_SETUP
2.741295080000000,SPI,MOSI: 0x24;  MISO: 0x00
2.741313960000000,SPI,MOSI: 0x20;  MISO: 0x2E-WRITE_REGISTER-CONFIG
2.741323720000000,SPI,MOSI: 0x5E;  MISO: 0x00
2.741342640000000,SPI,MOSI: 0x31;  MISO: 0x2E-WRITE_REGISTER-RX_PW_P0
2.741352400000000,SPI,MOSI: 0x04;  MISO: 0x00
2.741367680000000,SPI,MOSI: 0x25;  MISO: 0x2E-WRITE_REGISTER-RF_CH
2.741377720000000,SPI,MOSI: 0x0B;  MISO: 0x00
2.741392200000000,SPI,MOSI: 0xE1;  MISO: 0x2E-FLUSH_TX-
2.741410360000000,SPI,MOSI: 0x27;  MISO: 0x2E-WRITE_REGISTER-STATUS
2.741420160000000,SPI,MOSI: 0xF0;  MISO: 0x00
2.741435160000000,SPI,MOSI: 0xA0;  MISO: 0x0E-WRITE_TX_PAYLOAD-
2.741445200000000,SPI,MOSI: 0xF9;  MISO: 0x00
2.741455200000000,SPI,MOSI: 0xFD;  MISO: 0x00
2.741465240000000,SPI,MOSI: 0x90;  MISO: 0x00
2.741475240000000,SPI,MOSI: 0xFF;  MISO: 0x00
2.741485280000000,SPI,MOSI: 0x75;  MISO: 0x00
2.743103120000000,SPI,MOSI: 0xE1;  MISO: 0x2E-FLUSH_TX-
2.743121240000000,SPI,MOSI: 0x27;  MISO: 0x2E-WRITE_REGISTER-STATUS
2.743131000000000,SPI,MOSI: 0xF0;  MISO: 0x00
2.743146040000000,SPI,MOSI: 0xA0;  MISO: 0x0E-WRITE_TX_PAYLOAD-
2.743156040000000,SPI,MOSI: 0xF9;  MISO: 0x00
2.743166040000000,SPI,MOSI: 0xFD;  MISO: 0x00
2.743176080000000,SPI,MOSI: 0x90;  MISO: 0x00
2.743186080000000,SPI,MOSI: 0xFF;  MISO: 0x00
2.743196080000000,SPI,MOSI: 0x75;  MISO: 0x00
2.759371440000000,SPI,MOSI: 0x21;  MISO: 0x2E-WRITE_REGISTER-EN_AA
2.759381200000000,SPI,MOSI: 0x00;  MISO: 0x00
2.759400080000000,SPI,MOSI: 0x22;  MISO: 0x2E-WRITE_REGISTER-EN_RXADDR
2.759409840000000,SPI,MOSI: 0x01;  MISO: 0x00
2.759428720000000,SPI,MOSI: 0x23;  MISO: 0x2E-WRITE_REGISTER-SETUP_AW
2.759438480000000,SPI,MOSI: 0x02;  MISO: 0x00
2.759457360000000,SPI,MOSI: 0x24;  MISO: 0x2E-WRITE_REGISTER-SETUP_RETR
2.759467080000000,SPI,MOSI: 0x00;  MISO: 0x00
2.759486000000000,SPI,MOSI: 0x26;  MISO: 0x2E-WRITE_REGISTER-RF_SETUP
2.759495720000000,SPI,MOSI: 0x24;  MISO: 0x00
2.759514640000000,SPI,MOSI: 0x20;  MISO: 0x2E-WRITE_REGISTER-CONFIG
2.759524360000000,SPI,MOSI: 0x5E;  MISO: 0x00
2.759543240000000,SPI,MOSI: 0x31;  MISO: 0x2E-WRITE_REGISTER-RX_PW_P0
2.759553000000000,SPI,MOSI: 0x04;  MISO: 0x00
2.759568280000000,SPI,MOSI: 0x25;  MISO: 0x2E-WRITE_REGISTER-RF_CH
2.759578280000000,SPI,MOSI: 0x2C;  MISO: 0x00
2.759592800000000,SPI,MOSI: 0xE1;  MISO: 0x2E-FLUSH_TX-
2.759610920000000,SPI,MOSI: 0x27;  MISO: 0x2E-WRITE_REGISTER-STATUS
2.759620680000000,SPI,MOSI: 0xF0;  MISO: 0x00
2.759635680000000,SPI,MOSI: 0xA0;  MISO: 0x0E-WRITE_TX_PAYLOAD-
2.759645680000000,SPI,MOSI: 0xF9;  MISO: 0x00
2.759655720000000,SPI,MOSI: 0xFD;  MISO: 0x00
2.759665720000000,SPI,MOSI: 0x90;  MISO: 0x00
2.759675720000000,SPI,MOSI: 0xFF;  MISO: 0x00
2.759685720000000,SPI,MOSI: 0x75;  MISO: 0x00
2.761303000000000,SPI,MOSI: 0xE1;  MISO: 0x2E-FLUSH_TX-
2.761321160000000,SPI,MOSI: 0x27;  MISO: 0x2E-WRITE_REGISTER-STATUS
2.761330920000000,SPI,MOSI: 0xF0;  MISO: 0x00
2.761345920000000,SPI,MOSI: 0xA0;  MISO: 0x0E-WRITE_TX_PAYLOAD-
2.761355920000000,SPI,MOSI: 0xF9;  MISO: 0x00
2.761365960000000,SPI,MOSI: 0xFD;  MISO: 0x00
2.761375960000000,SPI,MOSI: 0x90;  MISO: 0x00
2.761385960000000,SPI,MOSI: 0xFF;  MISO: 0x00
2.761396000000000,SPI,MOSI: 0x75;  MISO: 0x00
2.777576560000000,SPI,MOSI: 0x21;  MISO: 0x2E-WRITE_REGISTER-EN_AA
2.777586320000000,SPI,MOSI: 0x00;  MISO: 0x00
2.777605240000000,SPI,MOSI: 0x22;  MISO: 0x2E-WRITE_REGISTER-EN_RXADDR
2.777615000000000,SPI,MOSI: 0x01;  MISO: 0x00
2.777633920000000,SPI,MOSI: 0x23;  MISO: 0x2E-WRITE_REGISTER-SETUP_AW
2.777643680000000,SPI,MOSI: 0x02;  MISO: 0x00
2.777662600000000,SPI,MOSI: 0x24;  MISO: 0x2E-WRITE_REGISTER-SETUP_RETR
2.777672360000000,SPI,MOSI: 0x00;  MISO: 0x00
2.777691280000000,SPI,MOSI: 0x26;  MISO: 0x2E-WRITE_REGISTER-RF_SETUP
2.777701040000000,SPI,MOSI: 0x24;  MISO: 0x00
2.777719960000000,SPI,MOSI: 0x20;  MISO: 0x2E-WRITE_REGISTER-CONFIG
2.777729720000000,SPI,MOSI: 0x5E;  MISO: 0x00
2.777748640000000,SPI,MOSI: 0x31;  MISO: 0x2E-WRITE_REGISTER-RX_PW_P0
2.777758400000000,SPI,MOSI: 0x04;  MISO: 0x00
2.777773680000000,SPI,MOSI: 0x25;  MISO: 0x2E-WRITE_REGISTER-RF_CH
2.777783680000000,SPI,MOSI: 0x2B;  MISO: 0x00
2.777798200000000,SPI,MOSI: 0xE1;  MISO: 0x2E-FLUSH_TX-
2.777816400000000,SPI,MOSI: 0x27;  MISO: 0x2E-WRITE_REGISTER-STATUS
2.777826160000000,SPI,MOSI: 0xF0;  MISO: 0x00
2.777841200000000,SPI,MOSI: 0xA0;  MISO: 0x0E-WRITE_TX_PAYLOAD-
2.777851200000000,SPI,MOSI: 0xF9;  MISO: 0x00
2.777861240000000,SPI,MOSI: 0xFD;  MISO: 0x00
2.777871240000000,SPI,MOSI: 0x90;  MISO: 0x00
2.777881280000000,SPI,MOSI: 0xFF;  MISO: 0x00
2.777891320000000,SPI,MOSI: 0x75;  MISO: 0x00
2.779509480000000,SPI,MOSI: 0xE1;  MISO: 0x2E-FLUSH_TX-
2.779527640000000,SPI,MOSI: 0x27;  MISO: 0x2E-WRITE_REGISTER-STATUS
2.779537400000000,SPI,MOSI: 0xF0;  MISO: 0x00
2.779552400000000,SPI,MOSI: 0xA0;  MISO: 0x0E-WRITE_TX_PAYLOAD-
2.779562440000000,SPI,MOSI: 0xF9;  MISO: 0x00
2.779572440000000,SPI,MOSI: 0xFD;  MISO: 0x00
2.779582480000000,SPI,MOSI: 0x90;  MISO: 0x00
2.779592480000000,SPI,MOSI: 0xFF;  MISO: 0x00
2.779602520000000,SPI,MOSI: 0x75;  MISO: 0x00
2.795784480000000,SPI,MOSI: 0x21;  MISO: 0x2E-WRITE_REGISTER-EN_AA
2.795794240000000,SPI,MOSI: 0x00;  MISO: 0x00
2.795813120000000,SPI,MOSI: 0x22;  MISO: 0x2E-WRITE_REGISTER-EN_RXADDR
2.795822920000000,SPI,MOSI: 0x01;  MISO: 0x00
2.795841800000000,SPI,MOSI: 0x23;  MISO: 0x2E-WRITE_REGISTER-SETUP_AW
2.795851560000000,SPI,MOSI: 0x02;  MISO: 0x00
2.795870480000000,SPI,MOSI: 0x24;  MISO: 0x2E-WRITE_REGISTER-SETUP_RETR
2.795880240000000,SPI,MOSI: 0x00;  MISO: 0x00
2.795899160000000,SPI,MOSI: 0x26;  MISO: 0x2E-WRITE_REGISTER-RF_SETUP
2.795908920000000,SPI,MOSI: 0x24;  MISO: 0x00
2.795927840000000,SPI,MOSI: 0x20;  MISO: 0x2E-WRITE_REGISTER-CONFIG
2.795937600000000,SPI,MOSI: 0x5E;  MISO: 0x00
2.795956520000000,SPI,MOSI: 0x31;  MISO: 0x2E-WRITE_REGISTER-RX_PW_P0
2.795966280000000,SPI,MOSI: 0x04;  MISO: 0x00
2.795981560000000,SPI,MOSI: 0x25;  MISO: 0x2E-WRITE_REGISTER-RF_CH
2.795991600000000,SPI,MOSI: 0x1D;  MISO: 0x00
2.796006120000000,SPI,MOSI: 0xE1;  MISO: 0x2E-FLUSH_TX-
2.796024240000000,SPI,MOSI: 0x27;  MISO: 0x2E-WRITE_REGISTER-STATUS
2.796034040000000,SPI,MOSI: 0xF0;  MISO: 0x00
2.796049040000000,SPI,MOSI: 0xA0;  MISO: 0x0E-WRITE_TX_PAYLOAD-
2.796059080000000,SPI,MOSI: 0xF9;  MISO: 0x00
2.796069080000000,SPI,MOSI: 0xFD;  MISO: 0x00
2.796079120000000,SPI,MOSI: 0x90;  MISO: 0x00
2.796089120000000,SPI,MOSI: 0xFF;  MISO: 0x00
2.796099160000000,SPI,MOSI: 0x75;  MISO: 0x00
2.797717840000000,SPI,MOSI: 0xE1;  MISO: 0x2E-FLUSH_TX-
2.797735960000000,SPI,MOSI: 0x27;  MISO: 0x2E-WRITE_REGISTER-STATUS
2.797745720000000,SPI,MOSI: 0xF0;  MISO: 0x00
2.797760760000000,SPI,MOSI: 0xA0;  MISO: 0x0E-WRITE_TX_PAYLOAD-
2.797770760000000,SPI,MOSI: 0xF9;  MISO: 0x00
2.797780800000000,SPI,MOSI: 0xFD;  MISO: 0x00
2.797790800000000,SPI,MOSI: 0x90;  MISO: 0x00
2.797800800000000,SPI,MOSI: 0xFF;  MISO: 0x00
2.797810840000000,SPI,MOSI: 0x75;  MISO: 0x00
2.813987800000000,SPI,MOSI: 0x21;  MISO: 0x2E-WRITE_REGISTER-EN_AA
2.813997560000000,SPI,MOSI: 0x00;  MISO: 0x00
2.814016480000000,SPI,MOSI: 0x22;  MISO: 0x2E-WRITE_REGISTER-EN_RXADDR
2.814026280000000,SPI,MOSI: 0x01;  MISO: 0x00
2.814045200000000,SPI,MOSI: 0x23;  MISO: 0x2E-WRITE_REGISTER-SETUP_AW
2.814054960000000,SPI,MOSI: 0x02;  MISO: 0x00
2.814073840000000,SPI,MOSI: 0x24;  MISO: 0x2E-WRITE_REGISTER-SETUP_RETR
2.814083640000000,SPI,MOSI: 0x00;  MISO: 0x00
2.814102560000000,SPI,MOSI: 0x26;  MISO: 0x2E-WRITE_REGISTER-RF_SETUP
2.814112320000000,SPI,MOSI: 0x24;  MISO: 0x00
2.814131240000000,SPI,MOSI: 0x20;  MISO: 0x2E-WRITE_REGISTER-CONFIG
2.814141000000000,SPI,MOSI: 0x5E;  MISO: 0x00
2.814159920000000,SPI,MOSI: 0x31;  MISO: 0x2E-WRITE_REGISTER-RX_PW_P0
2.814169680000000,SPI,MOSI: 0x04;  MISO: 0x00
2.814184920000000,SPI,MOSI: 0x25;  MISO: 0x2E-WRITE_REGISTER-RF_CH
2.814194960000000,SPI,MOSI: 0x19;  MISO: 0x00
2.814209480000000,SPI,MOSI: 0xE1;  MISO: 0x2E-FLUSH_TX-
2.814227640000000,SPI,MOSI: 0x27;  MISO: 0x2E-WRITE_REGISTER-STATUS
2.814237400000000,SPI,MOSI: 0xF0;  MISO: 0x00
2.814252440000000,SPI,MOSI: 0xA0;  MISO: 0x0E-WRITE_TX_PAYLOAD-
2.814262440000000,SPI,MOSI: 0xFA;  MISO: 0x00
2.814272480000000,SPI,MOSI: 0xFD;  MISO: 0x00
2.814282480000000,SPI,MOSI: 0x90;  MISO: 0x00
2.814292520000000,SPI,MOSI: 0xFF;  MISO: 0x00
2.814302520000000,SPI,MOSI: 0x75;  MISO: 0x00
2.815920120000000,SPI,MOSI: 0xE1;  MISO: 0x2E-FLUSH_TX-
2.815938280000000,SPI,MOSI: 0x27;  MISO: 0x2E-WRITE_REGISTER-STATUS
2.815948080000000,SPI,MOSI: 0xF0;  MISO: 0x00
2.815963080000000,SPI,MOSI: 0xA0;  MISO: 0x0E-WRITE_TX_PAYLOAD-
2.815973120000000,SPI,MOSI: 0xFA;  MISO: 0x00
2.815983120000000,SPI,MOSI: 0xFD;  MISO: 0x00
2.815993120000000,SPI,MOSI: 0x90;  MISO: 0x00
2.816003160000000,SPI,MOSI: 0xFF;  MISO: 0x00
2.816013160000000,SPI,MOSI: 0x75;  MISO: 0x00
2.832186200000000,SPI,MOSI: 0x21;  MISO: 0x2E-WRITE_REGISTER-EN_AA
2.832195960000000,SPI,MOSI: 0x00;  MISO: 0x00
2.832214880000000,SPI,MOSI: 0x22;  MISO: 0x2E-WRITE_REGISTER-EN_RXADDR
2.832224640000000,SPI,MOSI: 0x01;  MISO: 0x00
2.832243520000000,SPI,MOSI: 0x23;  MISO: 0x2E-WRITE_REGISTER-SETUP_AW
2.832253280000000,SPI,MOSI: 0x02;  MISO: 0x00
2.832272160000000,SPI,MOSI: 0x24;  MISO: 0x2E-WRITE_REGISTER-SETUP_RETR
2.832281920000000,SPI,MOSI: 0x00;  MISO: 0x00
2.832300800000000,SPI,MOSI: 0x26;  MISO: 0x2E-WRITE_REGISTER-RF_SETUP
2.832310560000000,SPI,MOSI: 0x24;  MISO: 0x00
2.832329480000000,SPI,MOSI: 0x20;  MISO: 0x2E-WRITE_REGISTER-CONFIG
2.832339240000000,SPI,MOSI: 0x5E;  MISO: 0x00
2.832358120000000,SPI,MOSI: 0x31;  MISO: 0x2E-WRITE_REGISTER-RX_PW_P0
2.832367880000000,SPI,MOSI: 0x04;  MISO: 0x00
2.832383160000000,SPI,MOSI: 0x25;  MISO: 0x2E-WRITE_REGISTER-RF_CH
2.832393160000000,SPI,MOSI: 0x38;  MISO: 0x00
2.832407640000000,SPI,MOSI: 0xE1;  MISO: 0x2E-FLUSH_TX-
2.832425800000000,SPI,MOSI: 0x27;  MISO: 0x2E-WRITE_REGISTER-STATUS
2.832435560000000,SPI,MOSI: 0xF0;  MISO: 0x00
2.832450600000000,SPI,MOSI: 0xA0;  MISO: 0x0E-WRITE_TX_PAYLOAD-
2.832460600000000,SPI,MOSI: 0xF9;  MISO: 0x00
2.832470600000000,SPI,MOSI: 0xFD;  MISO: 0x00
2.832480640000000,SPI,MOSI: 0x90;  MISO: 0x00
2.832490640000000,SPI,MOSI: 0xFF;  MISO: 0x00
2.832500680000000,SPI,MOSI: 0x75;  MISO: 0x00
2.834118600000000,SPI,MOSI: 0xE1;  MISO: 0x2E-FLUSH_TX-
2.834136760000000,SPI,MOSI: 0x27;  MISO: 0x2E-WRITE_REGISTER-STATUS
2.834146480000000,SPI,MOSI: 0xF0;  MISO: 0x00
2.834161520000000,SPI,MOSI: 0xA0;  MISO: 0x0E-WRITE_TX_PAYLOAD-
2.834171520000000,SPI,MOSI: 0xF9;  MISO: 0x00
2.834181520000000,SPI,MOSI: 0xFD;  MISO: 0x00
2.834191520000000,SPI,MOSI: 0x90;  MISO: 0x00
2.834201520000000,SPI,MOSI: 0xFF;  MISO: 0x00
2.834211520000000,SPI,MOSI: 0x75;  MISO: 0x00
2.850387920000000,SPI,MOSI: 0x21;  MISO: 0x2E-WRITE_REGISTER-EN_AA
2.850397680000000,SPI,MOSI: 0x00;  MISO: 0x00
2.850416600000000,SPI,MOSI: 0x22;  MISO: 0x2E-WRITE_REGISTER-EN_RXADDR
2.850426360000000,SPI,MOSI: 0x01;  MISO: 0x00
2.850445280000000,SPI,MOSI: 0x23;  MISO: 0x2E-WRITE_REGISTER-SETUP_AW
2.850455040000000,SPI,MOSI: 0x02;  MISO: 0x00
2.850473960000000,SPI,MOSI: 0x24;  MISO: 0x2E-WRITE_REGISTER-SETUP_RETR
2.850483720000000,SPI,MOSI: 0x00;  MISO: 0x00
2.850502640000000,SPI,MOSI: 0x26;  MISO: 0x2E-WRITE_REGISTER-RF_SETUP
2.850512400000000,SPI,MOSI: 0x24;  MISO: 0x00
2.850531280000000,SPI,MOSI: 0x20;  MISO: 0x2E-WRITE_REGISTER-CONFIG
2.850541040000000,SPI,MOSI: 0x5E;  MISO: 0x00
2.850559960000000,SPI,MOSI: 0x31;  MISO: 0x2E-WRITE_REGISTER-RX_PW_P0
2.850569720000000,SPI,MOSI: 0x04;  MISO: 0x00
2.850585000000000,SPI,MOSI: 0x25;  MISO: 0x2E-WRITE_REGISTER-RF_CH
2.850595000000000,SPI,MOSI: 0x10;  MISO: 0x00
2.850609520000000,SPI,MOSI: 0xE1;  MISO: 0x2E-FLUSH_TX-
2.850627640000000,SPI,MOSI: 0x27;  MISO: 0x2E-WRITE_REGISTER-STATUS
2.850637400000000,SPI,MOSI: 0xF0;  MISO: 0x00
2.850652440000000,SPI,MOSI: 0xA0;  MISO: 0x0E-WRITE_TX_PAYLOAD-
2.850662480000000,SPI,MOSI: 0xF9;  MISO: 0x00
2.850672480000000,SPI,MOSI: 0xFD;  MISO: 0x00
2.850682480000000,SPI,MOSI: 0x90;  MISO: 0x00
2.850692520000000,SPI,MOSI: 0xFF;  MISO: 0x00
2.850702520000000,SPI,MOSI: 0x75;  MISO: 0x00
2.852320320000000,SPI,MOSI: 0xE1;  MISO: 0x2E-FLUSH_TX-
2.852338480000000,SPI,MOSI: 0x27;  MISO: 0x2E-WRITE_REGISTER-STATUS
2.852348240000000,SPI,MOSI: 0xF0;  MISO: 0x00
2.852363280000000,SPI,MOSI: 0xA0;  MISO: 0x0E-WRITE_TX_PAYLOAD-
2.852373280000000,SPI,MOSI: 0xF9;  MISO: 0x00
2.852383280000000,SPI,MOSI: 0xFD;  MISO: 0x00
2.852393320000000,SPI,MOSI: 0x90;  MISO: 0x00
2.852403320000000,SPI,MOSI: 0xFF;  MISO: 0x00
2.852413320000000,SPI,MOSI: 0x75;  MISO: 0x00
2.868582120000000,SPI,MOSI: 0x21;  MISO: 0x2E-WRITE_REGISTER-EN_AA
2.868591880000000,SPI,MOSI: 0x00;  MISO: 0x00
2.868610760000000,SPI,MOSI: 0x22;  MISO: 0x2E-WRITE_REGISTER-EN_RXADDR
2.868620520000000,SPI,MOSI: 0x01;  MISO: 0x00
2.868639400000000,SPI,MOSI: 0x23;  MISO: 0x2E-WRITE_REGISTER-SETUP_AW
2.868649160000000,SPI,MOSI: 0x02;  MISO: 0x00
2.868668040000000,SPI,MOSI: 0x24;  MISO: 0x2E-WRITE_REGISTER-SETUP_RETR
2.868677800000000,SPI,MOSI: 0x00;  MISO: 0x00
2.868696680000000,SPI,MOSI: 0x26;  MISO: 0x2E-WRITE_REGISTER-RF_SETUP
2.868706440000000,SPI,MOSI: 0x24;  MISO: 0x00
2.868725360000000,SPI,MOSI: 0x20;  MISO: 0x2E-WRITE_REGISTER-CONFIG
2.868735120000000,SPI,MOSI: 0x5E;  MISO: 0x00
2.868754000000000,SPI,MOSI: 0x31;  MISO: 0x2E-WRITE_REGISTER-RX_PW_P0
2.868763760000000,SPI,MOSI: 0x04;  MISO: 0x00
2.868779000000000,SPI,MOSI: 0x25;  MISO: 0x2E-WRITE_REGISTER-RF_CH
2.868789000000000,SPI,MOSI: 0x13;  MISO: 0x00
2.868803520000000,SPI,MOSI: 0xE1;  MISO: 0x2E-FLUSH_TX-
2.868821640000000,SPI,MOSI: 0x27;  MISO: 0x2E-WRITE_REGISTER-STATUS
2.868831400000000,SPI,MOSI: 0xF0;  MISO: 0x00
2.868846400000000,SPI,MOSI: 0xA0;  MISO: 0x0E-WRITE_TX_PAYLOAD-
2.868856440000000,SPI,MOSI: 0xF9;  MISO: 0x00
2.868866440000000,SPI,MOSI: 0xFD;  MISO: 0x00
2.868876440000000,SPI,MOSI: 0x90;  MISO: 0x00
2.868886440000000,SPI,MOSI: 0xFF;  MISO: 0x00
2.868896440000000,SPI,MOSI: 0x75;  MISO: 0x00
2.870513600000000,SPI,MOSI: 0xE1;  MISO: 0x2E-FLUSH_TX-
2.870531720000000,SPI,MOSI: 0x27;  MISO: 0x2E-WRITE_REGISTER-STATUS
2.870541480000000,SPI,MOSI: 0xF0;  MISO: 0x00
2.870556520000000,SPI,MOSI: 0xA0;  MISO: 0x0E-WRITE_TX_PAYLOAD-
2.870566520000000,SPI,MOSI: 0xF9;  MISO: 0x00
2.870576520000000,SPI,MOSI: 0xFD;  MISO: 0x00
2.870586560000000,SPI,MOSI: 0x90;  MISO: 0x00
2.870596560000000,SPI,MOSI: 0xFF;  MISO: 0x00
2.870606560000000,SPI,MOSI: 0x75;  MISO: 0x00
2.886773480000000,SPI,MOSI: 0x21;  MISO: 0x2E-WRITE_REGISTER-EN_AA
2.886783240000000,SPI,MOSI: 0x00;  MISO: 0x00
2.886802120000000,SPI,MOSI: 0x22;  MISO: 0x2E-WRITE_REGISTER-EN_RXADDR
2.886811880000000,SPI,MOSI: 0x01;  MISO: 0x00
2.886830800000000,SPI,MOSI: 0x23;  MISO: 0x2E-WRITE_REGISTER-SETUP_AW
2.886840560000000,SPI,MOSI: 0x02;  MISO: 0x00
2.886859440000000,SPI,MOSI: 0x24;  MISO: 0x2E-WRITE_REGISTER-SETUP_RETR
2.886869200000000,SPI,MOSI: 0x00;  MISO: 0x00
2.886888120000000,SPI,MOSI: 0x26;  MISO: 0x2E-WRITE_REGISTER-RF_SETUP
2.886897880000000,SPI,MOSI: 0x24;  MISO: 0x00
2.886916800000000,SPI,MOSI: 0x20;  MISO: 0x2E-WRITE_REGISTER-CONFIG
2.886926560000000,SPI,MOSI: 0x5E;  MISO: 0x00
2.886945440000000,SPI,MOSI: 0x31;  MISO: 0x2E-WRITE_REGISTER-RX_PW_P0
2.886955200000000,SPI,MOSI: 0x04;  MISO: 0x00
2.886970480000000,SPI,MOSI: 0x25;  MISO: 0x2E-WRITE_REGISTER-RF_CH
2.886980520000000,SPI,MOSI: 0x30;  MISO: 0x00
2.886995040000000,SPI,MOSI: 0xE1;  MISO: 0x2E-FLUSH_TX-
2.887013160000000,SPI,MOSI: 0x27;  MISO: 0x2E-WRITE_REGISTER-STATUS
2.887022920000000,SPI,MOSI: 0xF0;  MISO: 0x00
2.887037960000000,SPI,MOSI: 0xA0;  MISO: 0x0E-WRITE_TX_PAYLOAD-
2.887047960000000,SPI,MOSI: 0xF9;  MISO: 0x00
2.887057960000000,SPI,MOSI: 0xFD;  MISO: 0x00
2.887068000000000,SPI,MOSI: 0x90;  MISO: 0x00
2.887078000000000,SPI,MOSI: 0xFF;  MISO: 0x00
2.887088000000000,SPI,MOSI: 0x75;  MISO: 0x00
2.888705880000000,SPI,MOSI: 0xE1;  MISO: 0x2E-FLUSH_TX-
2.888724040000000,SPI,MOSI: 0x27;  MISO: 0x2E-WRITE_REGISTER-STATUS
2.888733800000000,SPI,MOSI: 0xF0;  MISO: 0x00
2.888748840000000,SPI,MOSI: 0xA0;  MISO: 0x0E-WRITE_TX_PAYLOAD-
2.888758840000000,SPI,MOSI: 0xF9;  MISO: 0x00
2.888768880000000,SPI,MOSI: 0xFD;  MISO: 0x00
2.888778880000000,SPI,MOSI: 0x90;  MISO: 0x00
2.888788880000000,SPI,MOSI: 0xFF;  MISO: 0x00
2.888798920000000,SPI,MOSI: 0x75;  MISO: 0x00
2.904967560000000,SPI,MOSI: 0x21;  MISO: 0x2E-WRITE_REGISTER-EN_AA
2.904977320000000,SPI,MOSI: 0x00;  MISO: 0x00
2.904996200000000,SPI,MOSI: 0x22;  MISO: 0x2E-WRITE_REGISTER-EN_RXADDR
2.905005960000000,SPI,MOSI: 0x01;  MISO: 0x00
2.905024840000000,SPI,MOSI: 0x23;  MISO: 0x2E-WRITE_REGISTER-SETUP_AW
2.905034600000000,SPI,MOSI: 0x02;  MISO: 0x00
2.905053480000000,SPI,MOSI: 0x24;  MISO: 0x2E-WRITE_REGISTER-SETUP_RETR
2.905063240000000,SPI,MOSI: 0x00;  MISO: 0x00
2.905082120000000,SPI,MOSI: 0x26;  MISO: 0x2E-WRITE_REGISTER-RF_SETUP
2.905091880000000,SPI,MOSI: 0x24;  MISO: 0x00
2.905110800000000,SPI,MOSI: 0x20;  MISO: 0x2E-WRITE_REGISTER-CONFIG
2.905120560000000,SPI,MOSI: 0x5E;  MISO: 0x00
2.905139440000000,SPI,MOSI: 0x31;  MISO: 0x2E-WRITE_REGISTER-RX_PW_P0
2.905149200000000,SPI,MOSI: 0x04;  MISO: 0x00
2.905164440000000,SPI,MOSI: 0x25;  MISO: 0x2E-WRITE_REGISTER-RF_CH
2.905174440000000,SPI,MOSI: 0x48;  MISO: 0x00
2.905188960000000,SPI,MOSI: 0xE1;  MISO: 0x2E-FLUSH_TX-
2.905207120000000,SPI,MOSI: 0x27;  MISO: 0x2E-WRITE_REGISTER-STATUS
2.905216880000000,SPI,MOSI: 0xF0;  MISO: 0x00
2.905231920000000,SPI,MOSI: 0xA0;  MISO: 0x0E-WRITE_TX_PAYLOAD-
2.905241920000000,SPI,MOSI: 0xF9;  MISO: 0x00
2.905251920000000,SPI,MOSI: 0xFD;  MISO: 0x00
2.905261960000000,SPI,MOSI: 0x90;  MISO: 0x00
2.905271960000000,SPI,MOSI: 0xFF;  MISO: 0x00
2.905281960000000,SPI,MOSI: 0x75;  MISO: 0x00
2.906899160000000,SPI,MOSI: 0xE1;  MISO: 0x2E-FLUSH_TX-
2.906917320000000,SPI,MOSI: 0x27;  MISO: 0x2E-WRITE_REGISTER-STATUS
2.906927080000000,SPI,MOSI: 0xF0;  MISO: 0x00
2.906942080000000,SPI,MOSI: 0xA0;  MISO: 0x0E-WRITE_TX_PAYLOAD-
2.906952080000000,SPI,MOSI: 0xF9;  MISO: 0x00
2.906962120000000,SPI,MOSI: 0xFD;  MISO: 0x00
2.906972120000000,SPI,MOSI: 0x90;  MISO: 0x00
2.906982120000000,SPI,MOSI: 0xFF;  MISO: 0x00
2.906992160000000,SPI,MOSI: 0x75;  MISO: 0x00
2.923147440000000,SPI,MOSI: 0x21;  MISO: 0x2E-WRITE_REGISTER-EN_AA
2.923157200000000,SPI,MOSI: 0x00;  MISO: 0x00
2.923176080000000,SPI,MOSI: 0x22;  MISO: 0x2E-WRITE_REGISTER-EN_RXADDR
2.923185840000000,SPI,MOSI: 0x01;  MISO: 0x00
2.923204720000000,SPI,MOSI: 0x23;  MISO: 0x2E-WRITE_REGISTER-SETUP_AW
2.923214480000000,SPI,MOSI: 0x02;  MISO: 0x00
2.923233360000000,SPI,MOSI: 0x24;  MISO: 0x2E-WRITE_REGISTER-SETUP_RETR
2.923243120000000,SPI,MOSI: 0x00;  MISO: 0x00
2.923262000000000,SPI,MOSI: 0x26;  MISO: 0x2E-WRITE_REGISTER-RF_SETUP
2.923271760000000,SPI,MOSI: 0x24;  MISO: 0x00
2.923290680000000,SPI,MOSI: 0x20;  MISO: 0x2E-WRITE_REGISTER-CONFIG
2.923300440000000,SPI,MOSI: 0x5E;  MISO: 0x00
2.923319320000000,SPI,MOSI: 0x31;  MISO: 0x2E-WRITE_REGISTER-RX_PW_P0
2.923329080000000,SPI,MOSI: 0x04;  MISO: 0x00
2.923344320000000,SPI,MOSI: 0x25;  MISO: 0x2E-WRITE_REGISTER-RF_CH
2.923354320000000,SPI,MOSI: 0x2E;  MISO: 0x00
2.923368840000000,SPI,MOSI: 0xE1;  MISO: 0x2E-FLUSH_TX-
2.923387000000000,SPI,MOSI: 0x27;  MISO: 0x2E-WRITE_REGISTER-STATUS
2.923396760000000,SPI,MOSI: 0xF0;  MISO: 0x00
2.923411760000000,SPI,MOSI: 0xA0;  MISO: 0x0E-WRITE_TX_PAYLOAD-
2.923421760000000,SPI,MOSI: 0xF9;  MISO: 0x00
2.923431800000000,SPI,MOSI: 0xFD;  MISO: 0x00
2.923441800000000,SPI,MOSI: 0x90;  MISO: 0x00
2.923451800000000,SPI,MOSI: 0xFF;  MISO: 0x00
2.923461840000000,SPI,MOSI: 0x75;  MISO: 0x00
2.925078960000000,SPI,MOSI: 0xE1;  MISO: 0x2E-FLUSH_TX-
2.925097120000000,SPI,MOSI: 0x27;  MISO: 0x2E-WRITE_REGISTER-STATUS
2.925106880000000,SPI,MOSI: 0xF0;  MISO: 0x00
2.925121880000000,SPI,MOSI: 0xA0;  MISO: 0x0E-WRITE_TX_PAYLOAD-
2.925131880000000,SPI,MOSI: 0xF9;  MISO: 0x00
2.925141920000000,SPI,MOSI: 0xFD;  MISO: 0x00
2.925151920000000,SPI,MOSI: 0x90;  MISO: 0x00
2.925161920000000,SPI,MOSI: 0xFF;  MISO: 0x00
2.925171920000000,SPI,MOSI: 0x75;  MISO: 0x00
